LTspice 24.0.12 for Windows
Circuit: * C:\Users\domin\OneDrive - VietNam National University - HCM INTERNATIONAL UNIVERSITY\Documents\LTspice\LAB4\Draft4.asc
Start Time: Sun Dec  8 02:31:47 2024
solver = Normal
Maximum thread count: 20
tnom = 27
temp = 27
method = modified trap
Direct Newton iteration for .op point succeeded.
Semiconductor Device Operating Points:
                        --- Diodes ---
Name:    d:u1:1      d:u1:2      d:u1:5      d:u1:6      d:u1:4
Model:    u1:dx       u1:dx       u1:dx       u1:dx       u1:dx
Id:     -2.74e-11    1.08e-04    6.40e-04    5.63e-06   -1.12e-13
Vd:     -2.74e+01    6.57e-01    7.03e-01    5.81e-01   -1.11e-01
Req:     1.00e+12    2.39e+02    4.04e+01    4.59e+03    9.99e+11
CAP:     0.00e+00    0.00e+00    0.00e+00    0.00e+00    0.00e+00

Name:    d:u1:3
Model:    u1:dx
Id:     -2.50e-13
Vd:     -2.49e-01
Req:     1.00e+12
CAP:     0.00e+00

                        --- Bipolar Transistors ---
Name:     q:u1:1      q:u1:2
Model:     u1:qx       u1:qx
Ib:       1.60e-07   -1.57e-11
Ic:       9.98e-05    1.50e-11
Vbe:      7.15e-01   -7.25e-01
Vbc:     -1.35e+01   -1.50e+01
Vce:      1.42e+01    1.42e+01
BetaDC:   6.25e+02   -9.54e-01
Gm:       3.86e-03    2.55e-27
Rpi:      1.62e+05    1.00e+12
Rx:       0.00e+00    0.00e+00
Ro:       0.00e+00    0.00e+00
Cbe:      0.00e+00    0.00e+00
Cbc:      0.00e+00    0.00e+00
Cjs:      0.00e+00    0.00e+00
BetaAC:   6.25e+02    2.55e-15
Cbx:      0.00e+00    0.00e+00
Ft:       0.00e+00    0.00e+00


Total elapsed time: 0.105 seconds.

